
T18B4 000:418 SEGGER J-Link V4.54a Log File (0001ms, 0419ms total)
T18B4 000:418 DLL Compiled: Sep 17 2012 15:58:45 (0002ms, 0420ms total)
T18B4 000:418 Logging started @ 2016-04-26 11:17 (0002ms, 0420ms total)
T18B4 000:420 JLINK_SetWarnOutHandler(...) (0000ms, 0420ms total)
T18B4 000:420 JLINK_OpenEx(...)
Firmware: J-Link ARM V8 compiled Jul 17 2014 12:31:18
Hardware: V8.00
S/N: 17935099
Feature(s): RDI,FlashDL,FlashBP,JFlash  returns O.K. (0042ms, 0462ms total)
T18B4 000:462 JLINK_SetErrorOutHandler(...) (0000ms, 0462ms total)
T18B4 000:462 JLINK_ExecCommand("ProjectFile = "C:\Users\Administrator\Desktop\STM32L151\STM32L151³ÌÐò\STM32L151  PWM\Project\JLinkSettings.ini"", ...)  returns 0x00 (0002ms, 0464ms total)
T18B4 000:478 JLINK_ExecCommand("Device = STM32L151RD", ...)
                JLINK_ExecCommand("map ram 0x20000000 - 0x2000BFFF", ...)  returns 0x00 (0000ms, 0000ms total)
                JLINK_AddMirrorAreaEx(Addr = 0x00000000, Size = 0x00000000) (0000ms, 0000ms total)
              Device "STM32L151RD" selected (384 KB flash, 48 KB RAM).  returns 0x00 (0023ms, 0487ms total)
T18B4 000:502 JLINK_ExecCommand("DisableConnectionTimeout", ...)  returns 0x00 (0000ms, 0488ms total)
T18B4 000:502 JLINK_TIF_Select(JLINKARM_TIF_SWD)  returns 0x00 (0005ms, 0493ms total)
T18B4 000:507 JLINK_SetSpeed(10000) (0001ms, 0494ms total)
T18B4 000:508 JLINK_GetHardwareVersion()  returns 0x13880 (0000ms, 0494ms total)
T18B4 000:508 JLINK_GetDLLVersion()  returns 45401 (0001ms, 0495ms total)
T18B4 000:509 JLINK_GetFirmwareString(...) (0000ms, 0495ms total)
T18B4 000:583 JLINK_GetDLLVersion()  returns 45401 (0000ms, 0495ms total)
T18B4 000:583 JLINK_GetCompileDateTime() (0000ms, 0495ms total)
T18B4 000:595 JLINK_GetFirmwareString(...) (0001ms, 0496ms total)
T18B4 000:624 JLINK_GetHardwareVersion()  returns 0x13880 (0000ms, 0496ms total)
T18B4 000:681 JLINK_GetId() >0x108 TIF>Found SWD-DP with ID 0x2BA01477 >0x0D TIF> >0x21 TIF> >0x0D TIF> >0x28 TIF> >0x0D TIF> >0x28 TIF> >0x0D TIF> >0x21 TIF> >0x0D TIF> >0x21 TIF> >0x0D TIF> >0x28 TIF> >0x0D TIF> >0x21 TIF> >0x0D TIF> >0x21 TIF> >0x0D TIF> >0x21 TIF> >0x0D TIF> >0x21 TIF> >0x0D TIF> >0x21 TIF> >0x0D TIF> >0x28 TIF> >0x0D TIF> >0x28 TIF> >0x0D TIF> >0x21 TIF> >0x0D TIF> >0x21 TIF> >0x0D TIF> >0x28 TIF> >0x0D TIF> >0x21 TIF> >0x0D TIF> >0x21 TIF> >0x0D TIF> >0x28 TIF> >0x0D TIF>
 >0x28 TIF> >0x0D TIF> >0x28 TIF> >0x0D TIF> >0x21 TIF> >0x0D TIF> >0x21 TIF> >0x0D TIF> >0x28 TIF> >0x0D TIF> >0x28 TIF> >0x0D TIF> >0x28 TIF> >0x0D TIF> >0x21 TIF> >0x0D TIF> >0x21 TIF> >0x0D TIF> >0x21 TIF>TPIU fitted.ETM fitted. >0x0D TIF> >0x28 TIF> >0x0D TIF> >0x21 TIF> >0x0D TIF> >0x21 TIF> >0x0D TIF> >0x28 TIF> >0x0D TIF> >0x21 TIF> >0x0D TIF> >0x21 TIF>FPUnit: 6 code (BP) slots and 2 literal slots >0x0D TIF> >0x28 TIF> >0x0D TIF> >0x21 TIF> >0x0D TIF> >0x21 TIF> >0x0D TIF> >0x28 TIF> >0x0D TIF>
 >0x21 TIF> >0x0D TIF> >0x21 TIF> >0x0D TIF> >0x28 TIF> >0x0D TIF> >0x21 TIF> >0x0D TIF> >0x21 TIF> >0x0D TIF> >0x28 TIF> >0x0D TIF> >0x21 TIF> >0x0D TIF> >0x21 TIF>Found Cortex-M3 r2p0, Little endian. >0x0D TIF> >0x21 TIF>  returns 0x2BA01477 (0128ms, 0624ms total)
T18B4 000:809 JLINK_GetDeviceFamily()  returns 3 (0000ms, 0624ms total)
T18B4 000:814 JLINK_ReadMem (0xE00FFFF0, 0x0010 Bytes, ...) -- CPU is running -- CPU_ReadMem(16 bytes @ 0xE00FFFF0) -- Data:  0D 00 00 00 10 00 00 00 05 00 00 00 B1 00 00 00  returns 0x00 (0001ms, 0625ms total)
T18B4 000:816 JLINK_ReadMem (0xE00FFFD0, 0x0020 Bytes, ...) -- CPU is running -- CPU_ReadMem(32 bytes @ 0xE00FFFD0) -- Data:  00 00 00 00 00 00 00 00 00 00 00 00 00 00 00 00 ...  returns 0x00 (0000ms, 0625ms total)
T18B4 000:816 JLINK_ReadMem (0xE00FF000, 0x0018 Bytes, ...) -- CPU is running -- CPU_ReadMem(24 bytes @ 0xE00FF000) -- Data:  03 F0 F0 FF 03 20 F0 FF 03 30 F0 FF 03 10 F0 FF ...  returns 0x00 (0002ms, 0627ms total)
T18B4 000:818 JLINK_ReadMemU32(0xE000ED00, 0x0001 Items, ...) -- CPU is running -- CPU_ReadMem(4 bytes @ 0xE000ED00) -- Data:  30 C2 2F 41  returns 0x01 (0001ms, 0628ms total)
T18B4 000:819 JLINK_SetResetType(JLINKARM_RESET_TYPE_NORMAL)  returns JLINKARM_RESET_TYPE_NORMAL (0001ms, 0629ms total)
T18B4 000:820 JLINK_Reset() -- CPU is running -- CPU_WriteMem(4 bytes @ 0xE000EDF0) -- CPU is running -- CPU_WriteMem(4 bytes @ 0xE000EDFC) >0x35 TIF> -- CPU is running -- CPU_WriteMem(4 bytes @ 0xE000ED0C) -- CPU is running -- CPU_ReadMem(4 bytes @ 0xE000EDF0) -- CPU is running -- CPU_ReadMem(4 bytes @ 0xE000EDF0) -- CPU is running -- CPU_WriteMem(4 bytes @ 0xE000EDF0) -- CPU is running -- CPU_WriteMem(4 bytes @ 0xE000EDFC) -- CPU is running -- CPU_ReadMem(4 bytes @ 0xE000EDF0)
 -- CPU_WriteMem(4 bytes @ 0xE0002000) (0022ms, 0651ms total)
T18B4 000:842 JLINK_Halt()  returns 0x00 (0000ms, 0651ms total)
T18B4 000:842 JLINK_IsHalted()  returns TRUE (0000ms, 0651ms total)
T18B4 000:842 JLINK_ReadMemU32(0xE000EDF0, 0x0001 Items, ...) -- CPU_ReadMem(4 bytes @ 0xE000EDF0) -- Data:  03 00 03 00  returns 0x01 (0001ms, 0652ms total)
T18B4 000:843 JLINK_WriteU32(0xE000EDF0, 0xA05F0003) -- CPU_WriteMem(4 bytes @ 0xE000EDF0)  returns 0x00 (0001ms, 0653ms total)
T18B4 000:844 JLINK_WriteU32(0xE000EDFC, 0x01000000) -- CPU_WriteMem(4 bytes @ 0xE000EDFC)  returns 0x00 (0001ms, 0654ms total)
T18B4 000:877 JLINK_GetHWStatus(...)  returns 0x00 (0002ms, 0656ms total)
T18B4 000:890 JLINK_GetNumBPUnits(Type = 0xFFFFFF00)  returns 0x06 (0000ms, 0656ms total)
T18B4 000:890 JLINK_GetNumBPUnits(Type = 0xF0)  returns 0x2000 (0000ms, 0656ms total)
T18B4 000:890 JLINK_GetNumWPUnits()  returns 0x04 (0000ms, 0656ms total)
T18B4 000:903 JLINK_GetSpeed()  returns 0xFA0 (0001ms, 0657ms total)
T18B4 000:913 JLINK_ReadMemU32(0xE000E004, 0x0001 Items, ...) -- CPU_ReadMem(4 bytes @ 0xE000E004) -- Data:  01 00 00 00  returns 0x01 (0002ms, 0659ms total)
T18B4 000:915 JLINK_ReadMemU32(0xE000E004, 0x0001 Items, ...) -- CPU_ReadMem(4 bytes @ 0xE000E004) -- Data:  01 00 00 00  returns 0x01 (0001ms, 0660ms total)
T18B4 000:916 JLINK_WriteMem(0xE0001000, 0x001C Bytes, ...) -- Data:  01 00 00 00 00 00 00 00 00 00 00 00 00 00 00 00 ... -- CPU_WriteMem(28 bytes @ 0xE0001000)  returns 0x1C (0002ms, 0662ms total)
T18B4 000:918 JLINK_ReadMem (0xE0001000, 0x001C Bytes, ...) -- CPU_ReadMem(28 bytes @ 0xE0001000) -- Data:  01 00 00 40 00 00 00 00 00 00 00 00 00 00 00 00 ...  returns 0x00 (0001ms, 0663ms total)
T18B4 000:919 JLINK_Halt()  returns 0x00 (0000ms, 0663ms total)
T18B4 000:919 JLINK_IsHalted()  returns TRUE (0000ms, 0663ms total)
T18B4 000:928 JLINK_WriteMem(0x20000000, 0x022C Bytes, ...) -- Data:  00 BE 0A E0 0D 78 2D 06 68 40 08 24 40 00 00 D3 ... -- CPU_WriteMem(556 bytes @ 0x20000000)  returns 0x22C (0004ms, 0667ms total)
T18B4 000:933 JLINK_WriteReg(R0, 0x08000000)  returns 0x00 (0000ms, 0667ms total)
T18B4 000:933 JLINK_WriteReg(R1, 0x007A1200)  returns 0x00 (0000ms, 0667ms total)
T18B4 000:933 JLINK_WriteReg(R2, 0x00000001)  returns 0x00 (0000ms, 0667ms total)
T18B4 000:933 JLINK_WriteReg(R3, 0x00000000)  returns 0x00 (0000ms, 0667ms total)
T18B4 000:933 JLINK_WriteReg(R4, 0x00000000)  returns 0x00 (0000ms, 0667ms total)
T18B4 000:933 JLINK_WriteReg(R5, 0x00000000)  returns 0x00 (0000ms, 0667ms total)
T18B4 000:933 JLINK_WriteReg(R6, 0x00000000)  returns 0x00 (0000ms, 0667ms total)
T18B4 000:933 JLINK_WriteReg(R7, 0x00000000)  returns 0x00 (0000ms, 0667ms total)
T18B4 000:933 JLINK_WriteReg(R8, 0x00000000)  returns 0x00 (0000ms, 0667ms total)
T18B4 000:933 JLINK_WriteReg(R9, 0x20000228)  returns 0x00 (0000ms, 0667ms total)
T18B4 000:933 JLINK_WriteReg(R10, 0x00000000)  returns 0x00 (0000ms, 0667ms total)
T18B4 000:933 JLINK_WriteReg(R11, 0x00000000)  returns 0x00 (0000ms, 0667ms total)
T18B4 000:933 JLINK_WriteReg(R12, 0x00000000)  returns 0x00 (0000ms, 0667ms total)
T18B4 000:933 JLINK_WriteReg(R13, 0x20000800)  returns 0x00 (0000ms, 0667ms total)
T18B4 000:934 JLINK_WriteReg(R14, 0x20000001)  returns 0x00 (0000ms, 0668ms total)
T18B4 000:934 JLINK_WriteReg(R15, 0x20000020)  returns 0x00 (0000ms, 0668ms total)
T18B4 000:934 JLINK_WriteReg(XPSR, 0x01000000)  returns 0x00 (0000ms, 0668ms total)
T18B4 000:934 JLINK_WriteReg(MSP, 0x20000800)  returns 0x00 (0000ms, 0668ms total)
T18B4 000:934 JLINK_WriteReg(PSP, 0x20000800)  returns 0x00 (0000ms, 0668ms total)
T18B4 000:934 JLINK_WriteReg(CFBP, 0x00000000)  returns 0x00 (0000ms, 0668ms total)
T18B4 000:934 JLINK_SetBPEx(Addr = 0x20000000, Type = 0xFFFFFFF2) -- CPU_ReadMem(2 bytes @ 0x20000000)  returns 0x00000001 (0002ms, 0670ms total)
T18B4 000:936 JLINK_Go() -- CPU_WriteMem(2 bytes @ 0x20000000) -- CPU_WriteMem(4 bytes @ 0xE0002008) -- CPU_WriteMem(4 bytes @ 0xE000200C) -- CPU_WriteMem(4 bytes @ 0xE0002010) -- CPU_WriteMem(4 bytes @ 0xE0002014) -- CPU_WriteMem(4 bytes @ 0xE0002018) -- CPU_WriteMem(4 bytes @ 0xE000201C) (0011ms, 0681ms total)
T18B4 000:947 JLINK_IsHalted() -- CPU_ReadMem(2 bytes @ 0x20000000)  returns TRUE (0004ms, 0685ms total)
T18B4 000:951 JLINK_ReadReg(R15)  returns 0x20000000 (0000ms, 0681ms total)
T18B4 000:951 JLINK_ClrBPEx(BPHandle = 0x00000001)  returns 0x00 (0000ms, 0681ms total)
T18B4 000:951 JLINK_ReadReg(R0)  returns 0x00000000 (0001ms, 0682ms total)
T18B4 000:952 JLINK_WriteReg(R0, 0x08000000)  returns 0x00 (0000ms, 0682ms total)
T18B4 000:952 JLINK_WriteReg(R1, 0x00000100)  returns 0x00 (0000ms, 0682ms total)
T18B4 000:952 JLINK_WriteReg(R2, 0x00000000)  returns 0x00 (0000ms, 0682ms total)
T18B4 000:952 JLINK_WriteReg(R3, 0x00000000)  returns 0x00 (0000ms, 0682ms total)
T18B4 000:952 JLINK_WriteReg(R4, 0x00000000)  returns 0x00 (0000ms, 0682ms total)
T18B4 000:952 JLINK_WriteReg(R5, 0x00000000)  returns 0x00 (0000ms, 0682ms total)
T18B4 000:952 JLINK_WriteReg(R6, 0x00000000)  returns 0x00 (0001ms, 0683ms total)
T18B4 000:953 JLINK_WriteReg(R7, 0x00000000)  returns 0x00 (0000ms, 0683ms total)
T18B4 000:953 JLINK_WriteReg(R8, 0x00000000)  returns 0x00 (0000ms, 0683ms total)
T18B4 000:953 JLINK_WriteReg(R9, 0x20000228)  returns 0x00 (0000ms, 0683ms total)
T18B4 000:953 JLINK_WriteReg(R10, 0x00000000)  returns 0x00 (0000ms, 0683ms total)
T18B4 000:953 JLINK_WriteReg(R11, 0x00000000)  returns 0x00 (0000ms, 0683ms total)
T18B4 000:953 JLINK_WriteReg(R12, 0x00000000)  returns 0x00 (0000ms, 0683ms total)
T18B4 000:953 JLINK_WriteReg(R13, 0x20000800)  returns 0x00 (0000ms, 0683ms total)
T18B4 000:953 JLINK_WriteReg(R14, 0x20000001)  returns 0x00 (0000ms, 0683ms total)
T18B4 000:953 JLINK_WriteReg(R15, 0x200000F2)  returns 0x00 (0000ms, 0683ms total)
T18B4 000:953 JLINK_WriteReg(XPSR, 0x01000000)  returns 0x00 (0000ms, 0683ms total)
T18B4 000:953 JLINK_WriteReg(MSP, 0x20000800)  returns 0x00 (0000ms, 0683ms total)
T18B4 000:953 JLINK_WriteReg(PSP, 0x20000800)  returns 0x00 (0000ms, 0683ms total)
T18B4 000:953 JLINK_WriteReg(CFBP, 0x00000000)  returns 0x00 (0000ms, 0683ms total)
T18B4 000:953 JLINK_SetBPEx(Addr = 0x20000000, Type = 0xFFFFFFF2)  returns 0x00000002 (0000ms, 0683ms total)
T18B4 000:953 JLINK_Go() (0004ms, 0687ms total)
T18B4 000:957 JLINK_IsHalted() -- CPU_ReadMem(2 bytes @ 0x20000000)  returns TRUE (0005ms, 0692ms total)
T18B4 000:962 JLINK_ReadReg(R15)  returns 0x20000000 (0000ms, 0687ms total)
T18B4 000:962 JLINK_ClrBPEx(BPHandle = 0x00000002)  returns 0x00 (0000ms, 0687ms total)
T18B4 000:962 JLINK_ReadReg(R0)  returns 0x00000001 (0000ms, 0687ms total)
T18B4 000:962 JLINK_WriteReg(R0, 0x08000000)  returns 0x00 (0000ms, 0687ms total)
T18B4 000:962 JLINK_WriteReg(R1, 0x00000100)  returns 0x00 (0000ms, 0687ms total)
T18B4 000:962 JLINK_WriteReg(R2, 0x00000000)  returns 0x00 (0000ms, 0687ms total)
T18B4 000:962 JLINK_WriteReg(R3, 0x00000000)  returns 0x00 (0000ms, 0687ms total)
T18B4 000:962 JLINK_WriteReg(R4, 0x00000000)  returns 0x00 (0000ms, 0687ms total)
T18B4 000:962 JLINK_WriteReg(R5, 0x00000000)  returns 0x00 (0000ms, 0687ms total)
T18B4 000:962 JLINK_WriteReg(R6, 0x00000000)  returns 0x00 (0000ms, 0687ms total)
T18B4 000:962 JLINK_WriteReg(R7, 0x00000000)  returns 0x00 (0000ms, 0687ms total)
T18B4 000:962 JLINK_WriteReg(R8, 0x00000000)  returns 0x00 (0000ms, 0687ms total)
T18B4 000:962 JLINK_WriteReg(R9, 0x20000228)  returns 0x00 (0001ms, 0688ms total)
T18B4 000:963 JLINK_WriteReg(R10, 0x00000000)  returns 0x00 (0000ms, 0688ms total)
T18B4 000:963 JLINK_WriteReg(R11, 0x00000000)  returns 0x00 (0000ms, 0688ms total)
T18B4 000:963 JLINK_WriteReg(R12, 0x00000000)  returns 0x00 (0000ms, 0688ms total)
T18B4 000:963 JLINK_WriteReg(R13, 0x20000800)  returns 0x00 (0000ms, 0688ms total)
T18B4 000:963 JLINK_WriteReg(R14, 0x20000001)  returns 0x00 (0000ms, 0688ms total)
T18B4 000:963 JLINK_WriteReg(R15, 0x200000A4)  returns 0x00 (0000ms, 0688ms total)
T18B4 000:963 JLINK_WriteReg(XPSR, 0x01000000)  returns 0x00 (0000ms, 0688ms total)
T18B4 000:963 JLINK_WriteReg(MSP, 0x20000800)  returns 0x00 (0000ms, 0688ms total)
T18B4 000:963 JLINK_WriteReg(PSP, 0x20000800)  returns 0x00 (0000ms, 0688ms total)
T18B4 000:963 JLINK_WriteReg(CFBP, 0x00000000)  returns 0x00 (0000ms, 0688ms total)
T18B4 000:963 JLINK_SetBPEx(Addr = 0x20000000, Type = 0xFFFFFFF2)  returns 0x00000003 (0000ms, 0688ms total)
T18B4 000:963 JLINK_Go() (0003ms, 0691ms total)
T18B4 000:966 JLINK_IsHalted()  returns FALSE (0001ms, 0692ms total)
T18B4 001:017 JLINK_IsHalted() -- CPU_ReadMem(2 bytes @ 0x20000000)  returns TRUE (0007ms, 0698ms total)
T18B4 001:024 JLINK_ReadReg(R15)  returns 0x20000000 (0000ms, 0691ms total)
T18B4 001:024 JLINK_ClrBPEx(BPHandle = 0x00000003)  returns 0x00 (0000ms, 0691ms total)
T18B4 001:024 JLINK_ReadReg(R0)  returns 0x00000000 (0000ms, 0691ms total)
T18B4 001:025 JLINK_WriteReg(R0, 0x08000100)  returns 0x00 (0000ms, 0691ms total)
T18B4 001:025 JLINK_WriteReg(R1, 0x00000100)  returns 0x00 (0000ms, 0691ms total)
T18B4 001:025 JLINK_WriteReg(R2, 0x00000000)  returns 0x00 (0000ms, 0691ms total)
T18B4 001:026 JLINK_WriteReg(R3, 0x00000000)  returns 0x00 (0000ms, 0691ms total)
T18B4 001:026 JLINK_WriteReg(R4, 0x00000000)  returns 0x00 (0000ms, 0691ms total)
T18B4 001:026 JLINK_WriteReg(R5, 0x00000000)  returns 0x00 (0000ms, 0691ms total)
T18B4 001:026 JLINK_WriteReg(R6, 0x00000000)  returns 0x00 (0000ms, 0691ms total)
T18B4 001:026 JLINK_WriteReg(R7, 0x00000000)  returns 0x00 (0000ms, 0691ms total)
T18B4 001:026 JLINK_WriteReg(R8, 0x00000000)  returns 0x00 (0000ms, 0691ms total)
T18B4 001:026 JLINK_WriteReg(R9, 0x20000228)  returns 0x00 (0000ms, 0691ms total)
T18B4 001:026 JLINK_WriteReg(R10, 0x00000000)  returns 0x00 (0001ms, 0692ms total)
T18B4 001:027 JLINK_WriteReg(R11, 0x00000000)  returns 0x00 (0000ms, 0692ms total)
T18B4 001:027 JLINK_WriteReg(R12, 0x00000000)  returns 0x00 (0000ms, 0692ms total)
T18B4 001:027 JLINK_WriteReg(R13, 0x20000800)  returns 0x00 (0000ms, 0692ms total)
T18B4 001:027 JLINK_WriteReg(R14, 0x20000001)  returns 0x00 (0000ms, 0692ms total)
T18B4 001:027 JLINK_WriteReg(R15, 0x200000F2)  returns 0x00 (0000ms, 0692ms total)
T18B4 001:027 JLINK_WriteReg(XPSR, 0x01000000)  returns 0x00 (0000ms, 0692ms total)
T18B4 001:027 JLINK_WriteReg(MSP, 0x20000800)  returns 0x00 (0000ms, 0692ms total)
T18B4 001:027 JLINK_WriteReg(PSP, 0x20000800)  returns 0x00 (0000ms, 0692ms total)
T18B4 001:028 JLINK_WriteReg(CFBP, 0x00000000)  returns 0x00 (0000ms, 0693ms total)
T18B4 001:028 JLINK_SetBPEx(Addr = 0x20000000, Type = 0xFFFFFFF2)  returns 0x00000004 (0000ms, 0693ms total)
T18B4 001:028 JLINK_Go() (0003ms, 0696ms total)
T18B4 001:031 JLINK_IsHalted() -- CPU_ReadMem(2 bytes @ 0x20000000)  returns TRUE (0008ms, 0704ms total)
T18B4 001:039 JLINK_ReadReg(R15)  returns 0x20000000 (0000ms, 0696ms total)
T18B4 001:039 JLINK_ClrBPEx(BPHandle = 0x00000004)  returns 0x00 (0000ms, 0696ms total)
T18B4 001:039 JLINK_ReadReg(R0)  returns 0x00000001 (0000ms, 0696ms total)
T18B4 001:039 JLINK_WriteReg(R0, 0x08000100)  returns 0x00 (0000ms, 0696ms total)
T18B4 001:039 JLINK_WriteReg(R1, 0x00000100)  returns 0x00 (0001ms, 0697ms total)
T18B4 001:040 JLINK_WriteReg(R2, 0x00000000)  returns 0x00 (0000ms, 0697ms total)
T18B4 001:040 JLINK_WriteReg(R3, 0x00000000)  returns 0x00 (0000ms, 0697ms total)
T18B4 001:040 JLINK_WriteReg(R4, 0x00000000)  returns 0x00 (0000ms, 0697ms total)
T18B4 001:040 JLINK_WriteReg(R5, 0x00000000)  returns 0x00 (0000ms, 0697ms total)
T18B4 001:040 JLINK_WriteReg(R6, 0x00000000)  returns 0x00 (0000ms, 0697ms total)
T18B4 001:040 JLINK_WriteReg(R7, 0x00000000)  returns 0x00 (0000ms, 0697ms total)
T18B4 001:040 JLINK_WriteReg(R8, 0x00000000)  returns 0x00 (0000ms, 0697ms total)
T18B4 001:041 JLINK_WriteReg(R9, 0x20000228)  returns 0x00 (0000ms, 0698ms total)
T18B4 001:041 JLINK_WriteReg(R10, 0x00000000)  returns 0x00 (0000ms, 0698ms total)
T18B4 001:041 JLINK_WriteReg(R11, 0x00000000)  returns 0x00 (0000ms, 0698ms total)
T18B4 001:041 JLINK_WriteReg(R12, 0x00000000)  returns 0x00 (0000ms, 0698ms total)
T18B4 001:041 JLINK_WriteReg(R13, 0x20000800)  returns 0x00 (0000ms, 0698ms total)
T18B4 001:041 JLINK_WriteReg(R14, 0x20000001)  returns 0x00 (0000ms, 0698ms total)
T18B4 001:041 JLINK_WriteReg(R15, 0x200000A4)  returns 0x00 (0000ms, 0698ms total)
T18B4 001:041 JLINK_WriteReg(XPSR, 0x01000000)  returns 0x00 (0000ms, 0698ms total)
T18B4 001:041 JLINK_WriteReg(MSP, 0x20000800)  returns 0x00 (0001ms, 0699ms total)
T18B4 001:042 JLINK_WriteReg(PSP, 0x20000800)  returns 0x00 (0000ms, 0699ms total)
T18B4 001:042 JLINK_WriteReg(CFBP, 0x00000000)  returns 0x00 (0000ms, 0699ms total)
T18B4 001:042 JLINK_SetBPEx(Addr = 0x20000000, Type = 0xFFFFFFF2)  returns 0x00000005 (0000ms, 0699ms total)
T18B4 001:042 JLINK_Go() (0003ms, 0702ms total)
T18B4 001:045 JLINK_IsHalted()  returns FALSE (0001ms, 0703ms total)
T18B4 001:096 JLINK_IsHalted() -- CPU_ReadMem(2 bytes @ 0x20000000)  returns TRUE (0005ms, 0707ms total)
T18B4 001:101 JLINK_ReadReg(R15)  returns 0x20000000 (0000ms, 0702ms total)
T18B4 001:101 JLINK_ClrBPEx(BPHandle = 0x00000005)  returns 0x00 (0000ms, 0702ms total)
T18B4 001:101 JLINK_ReadReg(R0)  returns 0x00000000 (0000ms, 0702ms total)
T18B4 001:101 JLINK_WriteReg(R0, 0x08000200)  returns 0x00 (0000ms, 0702ms total)
T18B4 001:101 JLINK_WriteReg(R1, 0x00000100)  returns 0x00 (0000ms, 0702ms total)
T18B4 001:101 JLINK_WriteReg(R2, 0x00000000)  returns 0x00 (0000ms, 0702ms total)
T18B4 001:101 JLINK_WriteReg(R3, 0x00000000)  returns 0x00 (0000ms, 0702ms total)
T18B4 001:101 JLINK_WriteReg(R4, 0x00000000)  returns 0x00 (0000ms, 0702ms total)
T18B4 001:101 JLINK_WriteReg(R5, 0x00000000)  returns 0x00 (0000ms, 0702ms total)
T18B4 001:101 JLINK_WriteReg(R6, 0x00000000)  returns 0x00 (0001ms, 0703ms total)
T18B4 001:102 JLINK_WriteReg(R7, 0x00000000)  returns 0x00 (0000ms, 0703ms total)
T18B4 001:102 JLINK_WriteReg(R8, 0x00000000)  returns 0x00 (0000ms, 0703ms total)
T18B4 001:102 JLINK_WriteReg(R9, 0x20000228)  returns 0x00 (0000ms, 0703ms total)
T18B4 001:102 JLINK_WriteReg(R10, 0x00000000)  returns 0x00 (0000ms, 0703ms total)
T18B4 001:102 JLINK_WriteReg(R11, 0x00000000)  returns 0x00 (0000ms, 0703ms total)
T18B4 001:102 JLINK_WriteReg(R12, 0x00000000)  returns 0x00 (0000ms, 0703ms total)
T18B4 001:102 JLINK_WriteReg(R13, 0x20000800)  returns 0x00 (0000ms, 0703ms total)
T18B4 001:102 JLINK_WriteReg(R14, 0x20000001)  returns 0x00 (0000ms, 0703ms total)
T18B4 001:102 JLINK_WriteReg(R15, 0x200000F2)  returns 0x00 (0000ms, 0703ms total)
T18B4 001:103 JLINK_WriteReg(XPSR, 0x01000000)  returns 0x00 (0000ms, 0704ms total)
T18B4 001:103 JLINK_WriteReg(MSP, 0x20000800)  returns 0x00 (0000ms, 0704ms total)
T18B4 001:103 JLINK_WriteReg(PSP, 0x20000800)  returns 0x00 (0000ms, 0704ms total)
T18B4 001:103 JLINK_WriteReg(CFBP, 0x00000000)  returns 0x00 (0000ms, 0704ms total)
T18B4 001:103 JLINK_SetBPEx(Addr = 0x20000000, Type = 0xFFFFFFF2)  returns 0x00000006 (0000ms, 0704ms total)
T18B4 001:103 JLINK_Go() (0003ms, 0707ms total)
T18B4 001:106 JLINK_IsHalted() -- CPU_ReadMem(2 bytes @ 0x20000000)  returns TRUE (0004ms, 0711ms total)
T18B4 001:110 JLINK_ReadReg(R15)  returns 0x20000000 (0000ms, 0707ms total)
T18B4 001:110 JLINK_ClrBPEx(BPHandle = 0x00000006)  returns 0x00 (0000ms, 0707ms total)
T18B4 001:110 JLINK_ReadReg(R0)  returns 0x00000001 (0000ms, 0707ms total)
T18B4 001:111 JLINK_WriteReg(R0, 0x08000200)  returns 0x00 (0000ms, 0708ms total)
T18B4 001:111 JLINK_WriteReg(R1, 0x00000100)  returns 0x00 (0000ms, 0708ms total)
T18B4 001:111 JLINK_WriteReg(R2, 0x00000000)  returns 0x00 (0000ms, 0708ms total)
T18B4 001:111 JLINK_WriteReg(R3, 0x00000000)  returns 0x00 (0000ms, 0708ms total)
T18B4 001:111 JLINK_WriteReg(R4, 0x00000000)  returns 0x00 (0000ms, 0708ms total)
T18B4 001:111 JLINK_WriteReg(R5, 0x00000000)  returns 0x00 (0000ms, 0708ms total)
T18B4 001:111 JLINK_WriteReg(R6, 0x00000000)  returns 0x00 (0000ms, 0708ms total)
T18B4 001:111 JLINK_WriteReg(R7, 0x00000000)  returns 0x00 (0000ms, 0708ms total)
T18B4 001:111 JLINK_WriteReg(R8, 0x00000000)  returns 0x00 (0001ms, 0709ms total)
T18B4 001:112 JLINK_WriteReg(R9, 0x20000228)  returns 0x00 (0000ms, 0709ms total)
T18B4 001:112 JLINK_WriteReg(R10, 0x00000000)  returns 0x00 (0000ms, 0709ms total)
T18B4 001:112 JLINK_WriteReg(R11, 0x00000000)  returns 0x00 (0000ms, 0709ms total)
T18B4 001:112 JLINK_WriteReg(R12, 0x00000000)  returns 0x00 (0000ms, 0709ms total)
T18B4 001:112 JLINK_WriteReg(R13, 0x20000800)  returns 0x00 (0000ms, 0709ms total)
T18B4 001:112 JLINK_WriteReg(R14, 0x20000001)  returns 0x00 (0000ms, 0709ms total)
T18B4 001:112 JLINK_WriteReg(R15, 0x200000A4)  returns 0x00 (0000ms, 0709ms total)
T18B4 001:112 JLINK_WriteReg(XPSR, 0x01000000)  returns 0x00 (0000ms, 0709ms total)
T18B4 001:112 JLINK_WriteReg(MSP, 0x20000800)  returns 0x00 (0000ms, 0709ms total)
T18B4 001:112 JLINK_WriteReg(PSP, 0x20000800)  returns 0x00 (0001ms, 0710ms total)
T18B4 001:113 JLINK_WriteReg(CFBP, 0x00000000)  returns 0x00 (0000ms, 0710ms total)
T18B4 001:113 JLINK_SetBPEx(Addr = 0x20000000, Type = 0xFFFFFFF2)  returns 0x00000007 (0000ms, 0710ms total)
T18B4 001:113 JLINK_Go() (0002ms, 0712ms total)
T18B4 001:116 JLINK_IsHalted()  returns FALSE (0001ms, 0714ms total)
T18B4 001:167 JLINK_IsHalted() -- CPU_ReadMem(2 bytes @ 0x20000000)  returns TRUE (0005ms, 0718ms total)
T18B4 001:172 JLINK_ReadReg(R15)  returns 0x20000000 (0000ms, 0713ms total)
T18B4 001:172 JLINK_ClrBPEx(BPHandle = 0x00000007)  returns 0x00 (0000ms, 0713ms total)
T18B4 001:172 JLINK_ReadReg(R0)  returns 0x00000000 (0000ms, 0713ms total)
T18B4 001:174 JLINK_WriteReg(R0, 0x08000300)  returns 0x00 (0000ms, 0713ms total)
T18B4 001:174 JLINK_WriteReg(R1, 0x00000100)  returns 0x00 (0000ms, 0713ms total)
T18B4 001:174 JLINK_WriteReg(R2, 0x00000000)  returns 0x00 (0000ms, 0713ms total)
T18B4 001:175 JLINK_WriteReg(R3, 0x00000000)  returns 0x00 (0000ms, 0713ms total)
T18B4 001:175 JLINK_WriteReg(R4, 0x00000000)  returns 0x00 (0000ms, 0713ms total)
T18B4 001:175 JLINK_WriteReg(R5, 0x00000000)  returns 0x00 (0000ms, 0713ms total)
T18B4 001:175 JLINK_WriteReg(R6, 0x00000000)  returns 0x00 (0001ms, 0714ms total)
T18B4 001:176 JLINK_WriteReg(R7, 0x00000000)  returns 0x00 (0000ms, 0714ms total)
T18B4 001:176 JLINK_WriteReg(R8, 0x00000000)  returns 0x00 (0000ms, 0714ms total)
T18B4 001:176 JLINK_WriteReg(R9, 0x20000228)  returns 0x00 (0000ms, 0714ms total)
T18B4 001:176 JLINK_WriteReg(R10, 0x00000000)  returns 0x00 (0000ms, 0714ms total)
T18B4 001:176 JLINK_WriteReg(R11, 0x00000000)  returns 0x00 (0000ms, 0714ms total)
T18B4 001:176 JLINK_WriteReg(R12, 0x00000000)  returns 0x00 (0000ms, 0714ms total)
T18B4 001:176 JLINK_WriteReg(R13, 0x20000800)  returns 0x00 (0000ms, 0714ms total)
T18B4 001:176 JLINK_WriteReg(R14, 0x20000001)  returns 0x00 (0001ms, 0715ms total)
T18B4 001:177 JLINK_WriteReg(R15, 0x200000F2)  returns 0x00 (0000ms, 0715ms total)
T18B4 001:177 JLINK_WriteReg(XPSR, 0x01000000)  returns 0x00 (0000ms, 0715ms total)
T18B4 001:177 JLINK_WriteReg(MSP, 0x20000800)  returns 0x00 (0000ms, 0715ms total)
T18B4 001:177 JLINK_WriteReg(PSP, 0x20000800)  returns 0x00 (0000ms, 0715ms total)
T18B4 001:177 JLINK_WriteReg(CFBP, 0x00000000)  returns 0x00 (0000ms, 0715ms total)
T18B4 001:177 JLINK_SetBPEx(Addr = 0x20000000, Type = 0xFFFFFFF2)  returns 0x00000008 (0000ms, 0715ms total)
T18B4 001:177 JLINK_Go() (0003ms, 0718ms total)
T18B4 001:180 JLINK_IsHalted() -- CPU_ReadMem(2 bytes @ 0x20000000)  returns TRUE (0005ms, 0723ms total)
T18B4 001:185 JLINK_ReadReg(R15)  returns 0x20000000 (0000ms, 0718ms total)
T18B4 001:185 JLINK_ClrBPEx(BPHandle = 0x00000008)  returns 0x00 (0000ms, 0718ms total)
T18B4 001:185 JLINK_ReadReg(R0)  returns 0x00000001 (0000ms, 0718ms total)
T18B4 001:185 JLINK_WriteReg(R0, 0x08000300)  returns 0x00 (0000ms, 0718ms total)
T18B4 001:185 JLINK_WriteReg(R1, 0x00000100)  returns 0x00 (0000ms, 0718ms total)
T18B4 001:185 JLINK_WriteReg(R2, 0x00000000)  returns 0x00 (0000ms, 0718ms total)
T18B4 001:185 JLINK_WriteReg(R3, 0x00000000)  returns 0x00 (0000ms, 0718ms total)
T18B4 001:185 JLINK_WriteReg(R4, 0x00000000)  returns 0x00 (0000ms, 0718ms total)
T18B4 001:185 JLINK_WriteReg(R5, 0x00000000)  returns 0x00 (0000ms, 0718ms total)
T18B4 001:185 JLINK_WriteReg(R6, 0x00000000)  returns 0x00 (0001ms, 0719ms total)
T18B4 001:186 JLINK_WriteReg(R7, 0x00000000)  returns 0x00 (0000ms, 0719ms total)
T18B4 001:186 JLINK_WriteReg(R8, 0x00000000)  returns 0x00 (0000ms, 0719ms total)
T18B4 001:186 JLINK_WriteReg(R9, 0x20000228)  returns 0x00 (0000ms, 0719ms total)
T18B4 001:186 JLINK_WriteReg(R10, 0x00000000)  returns 0x00 (0000ms, 0719ms total)
T18B4 001:186 JLINK_WriteReg(R11, 0x00000000)  returns 0x00 (0000ms, 0719ms total)
T18B4 001:186 JLINK_WriteReg(R12, 0x00000000)  returns 0x00 (0000ms, 0719ms total)
T18B4 001:186 JLINK_WriteReg(R13, 0x20000800)  returns 0x00 (0000ms, 0719ms total)
T18B4 001:186 JLINK_WriteReg(R14, 0x20000001)  returns 0x00 (0000ms, 0719ms total)
T18B4 001:186 JLINK_WriteReg(R15, 0x200000A4)  returns 0x00 (0000ms, 0719ms total)
T18B4 001:186 JLINK_WriteReg(XPSR, 0x01000000)  returns 0x00 (0000ms, 0719ms total)
T18B4 001:186 JLINK_WriteReg(MSP, 0x20000800)  returns 0x00 (0001ms, 0720ms total)
T18B4 001:187 JLINK_WriteReg(PSP, 0x20000800)  returns 0x00 (0000ms, 0720ms total)
T18B4 001:187 JLINK_WriteReg(CFBP, 0x00000000)  returns 0x00 (0000ms, 0720ms total)
T18B4 001:187 JLINK_SetBPEx(Addr = 0x20000000, Type = 0xFFFFFFF2)  returns 0x00000009 (0000ms, 0720ms total)
T18B4 001:187 JLINK_Go() (0003ms, 0723ms total)
T18B4 001:190 JLINK_IsHalted()  returns FALSE (0001ms, 0724ms total)
T18B4 001:241 JLINK_IsHalted() -- CPU_ReadMem(2 bytes @ 0x20000000)  returns TRUE (0005ms, 0728ms total)
T18B4 001:246 JLINK_ReadReg(R15)  returns 0x20000000 (0000ms, 0723ms total)
T18B4 001:246 JLINK_ClrBPEx(BPHandle = 0x00000009)  returns 0x00 (0000ms, 0723ms total)
T18B4 001:246 JLINK_ReadReg(R0)  returns 0x00000000 (0000ms, 0723ms total)
T18B4 001:246 JLINK_WriteReg(R0, 0x08000400)  returns 0x00 (0000ms, 0723ms total)
T18B4 001:246 JLINK_WriteReg(R1, 0x00000100)  returns 0x00 (0000ms, 0723ms total)
T18B4 001:246 JLINK_WriteReg(R2, 0x00000000)  returns 0x00 (0000ms, 0723ms total)
T18B4 001:246 JLINK_WriteReg(R3, 0x00000000)  returns 0x00 (0000ms, 0723ms total)
T18B4 001:246 JLINK_WriteReg(R4, 0x00000000)  returns 0x00 (0001ms, 0724ms total)
T18B4 001:247 JLINK_WriteReg(R5, 0x00000000)  returns 0x00 (0000ms, 0724ms total)
T18B4 001:247 JLINK_WriteReg(R6, 0x00000000)  returns 0x00 (0000ms, 0724ms total)
T18B4 001:247 JLINK_WriteReg(R7, 0x00000000)  returns 0x00 (0000ms, 0724ms total)
T18B4 001:247 JLINK_WriteReg(R8, 0x00000000)  returns 0x00 (0000ms, 0724ms total)
T18B4 001:247 JLINK_WriteReg(R9, 0x20000228)  returns 0x00 (0000ms, 0724ms total)
T18B4 001:247 JLINK_WriteReg(R10, 0x00000000)  returns 0x00 (0000ms, 0724ms total)
T18B4 001:247 JLINK_WriteReg(R11, 0x00000000)  returns 0x00 (0000ms, 0724ms total)
T18B4 001:247 JLINK_WriteReg(R12, 0x00000000)  returns 0x00 (0000ms, 0724ms total)
T18B4 001:247 JLINK_WriteReg(R13, 0x20000800)  returns 0x00 (0000ms, 0724ms total)
T18B4 001:247 JLINK_WriteReg(R14, 0x20000001)  returns 0x00 (0000ms, 0724ms total)
T18B4 001:247 JLINK_WriteReg(R15, 0x200000F2)  returns 0x00 (0001ms, 0725ms total)
T18B4 001:248 JLINK_WriteReg(XPSR, 0x01000000)  returns 0x00 (0000ms, 0725ms total)
T18B4 001:248 JLINK_WriteReg(MSP, 0x20000800)  returns 0x00 (0000ms, 0725ms total)
T18B4 001:248 JLINK_WriteReg(PSP, 0x20000800)  returns 0x00 (0000ms, 0725ms total)
T18B4 001:248 JLINK_WriteReg(CFBP, 0x00000000)  returns 0x00 (0000ms, 0725ms total)
T18B4 001:248 JLINK_SetBPEx(Addr = 0x20000000, Type = 0xFFFFFFF2)  returns 0x0000000A (0000ms, 0725ms total)
T18B4 001:248 JLINK_Go() (0003ms, 0728ms total)
T18B4 001:251 JLINK_IsHalted() -- CPU_ReadMem(2 bytes @ 0x20000000)  returns TRUE (0006ms, 0734ms total)
T18B4 001:257 JLINK_ReadReg(R15)  returns 0x20000000 (0000ms, 0728ms total)
T18B4 001:257 JLINK_ClrBPEx(BPHandle = 0x0000000A)  returns 0x00 (0000ms, 0728ms total)
T18B4 001:257 JLINK_ReadReg(R0)  returns 0x00000001 (0000ms, 0728ms total)
T18B4 001:257 JLINK_WriteReg(R0, 0x08000400)  returns 0x00 (0000ms, 0728ms total)
T18B4 001:257 JLINK_WriteReg(R1, 0x00000100)  returns 0x00 (0000ms, 0728ms total)
T18B4 001:257 JLINK_WriteReg(R2, 0x00000000)  returns 0x00 (0000ms, 0728ms total)
T18B4 001:257 JLINK_WriteReg(R3, 0x00000000)  returns 0x00 (0001ms, 0729ms total)
T18B4 001:258 JLINK_WriteReg(R4, 0x00000000)  returns 0x00 (0000ms, 0729ms total)
T18B4 001:258 JLINK_WriteReg(R5, 0x00000000)  returns 0x00 (0000ms, 0729ms total)
T18B4 001:258 JLINK_WriteReg(R6, 0x00000000)  returns 0x00 (0000ms, 0729ms total)
T18B4 001:258 JLINK_WriteReg(R7, 0x00000000)  returns 0x00 (0000ms, 0729ms total)
T18B4 001:258 JLINK_WriteReg(R8, 0x00000000)  returns 0x00 (0000ms, 0729ms total)
T18B4 001:258 JLINK_WriteReg(R9, 0x20000228)  returns 0x00 (0000ms, 0729ms total)
T18B4 001:258 JLINK_WriteReg(R10, 0x00000000)  returns 0x00 (0000ms, 0729ms total)
T18B4 001:258 JLINK_WriteReg(R11, 0x00000000)  returns 0x00 (0000ms, 0729ms total)
T18B4 001:258 JLINK_WriteReg(R12, 0x00000000)  returns 0x00 (0000ms, 0729ms total)
T18B4 001:258 JLINK_WriteReg(R13, 0x20000800)  returns 0x00 (0001ms, 0730ms total)
T18B4 001:259 JLINK_WriteReg(R14, 0x20000001)  returns 0x00 (0000ms, 0730ms total)
T18B4 001:259 JLINK_WriteReg(R15, 0x200000A4)  returns 0x00 (0000ms, 0730ms total)
T18B4 001:259 JLINK_WriteReg(XPSR, 0x01000000)  returns 0x00 (0000ms, 0730ms total)
T18B4 001:259 JLINK_WriteReg(MSP, 0x20000800)  returns 0x00 (0000ms, 0730ms total)
T18B4 001:259 JLINK_WriteReg(PSP, 0x20000800)  returns 0x00 (0000ms, 0730ms total)
T18B4 001:259 JLINK_WriteReg(CFBP, 0x00000000)  returns 0x00 (0000ms, 0730ms total)
T18B4 001:259 JLINK_SetBPEx(Addr = 0x20000000, Type = 0xFFFFFFF2)  returns 0x0000000B (0000ms, 0730ms total)
T18B4 001:259 JLINK_Go() (0003ms, 0733ms total)
T18B4 001:262 JLINK_IsHalted()  returns FALSE (0001ms, 0734ms total)
T18B4 001:313 JLINK_IsHalted() -- CPU_ReadMem(2 bytes @ 0x20000000)  returns TRUE (0004ms, 0737ms total)
T18B4 001:318 JLINK_ReadReg(R15)  returns 0x20000000 (0000ms, 0733ms total)
T18B4 001:318 JLINK_ClrBPEx(BPHandle = 0x0000000B)  returns 0x00 (0000ms, 0733ms total)
T18B4 001:318 JLINK_ReadReg(R0)  returns 0x00000000 (0000ms, 0733ms total)
T18B4 001:318 JLINK_WriteReg(R0, 0x08000500)  returns 0x00 (0000ms, 0733ms total)
T18B4 001:318 JLINK_WriteReg(R1, 0x00000100)  returns 0x00 (0000ms, 0733ms total)
T18B4 001:318 JLINK_WriteReg(R2, 0x00000000)  returns 0x00 (0001ms, 0734ms total)
T18B4 001:319 JLINK_WriteReg(R3, 0x00000000)  returns 0x00 (0000ms, 0734ms total)
T18B4 001:319 JLINK_WriteReg(R4, 0x00000000)  returns 0x00 (0000ms, 0734ms total)
T18B4 001:319 JLINK_WriteReg(R5, 0x00000000)  returns 0x00 (0000ms, 0734ms total)
T18B4 001:319 JLINK_WriteReg(R6, 0x00000000)  returns 0x00 (0000ms, 0734ms total)
T18B4 001:319 JLINK_WriteReg(R7, 0x00000000)  returns 0x00 (0000ms, 0734ms total)
T18B4 001:319 JLINK_WriteReg(R8, 0x00000000)  returns 0x00 (0000ms, 0734ms total)
T18B4 001:319 JLINK_WriteReg(R9, 0x20000228)  returns 0x00 (0000ms, 0734ms total)
T18B4 001:319 JLINK_WriteReg(R10, 0x00000000)  returns 0x00 (0000ms, 0734ms total)
T18B4 001:319 JLINK_WriteReg(R11, 0x00000000)  returns 0x00 (0000ms, 0734ms total)
T18B4 001:319 JLINK_WriteReg(R12, 0x00000000)  returns 0x00 (0001ms, 0735ms total)
T18B4 001:320 JLINK_WriteReg(R13, 0x20000800)  returns 0x00 (0000ms, 0735ms total)
T18B4 001:320 JLINK_WriteReg(R14, 0x20000001)  returns 0x00 (0000ms, 0735ms total)
T18B4 001:320 JLINK_WriteReg(R15, 0x200000F2)  returns 0x00 (0000ms, 0735ms total)
T18B4 001:320 JLINK_WriteReg(XPSR, 0x01000000)  returns 0x00 (0000ms, 0735ms total)
T18B4 001:320 JLINK_WriteReg(MSP, 0x20000800)  returns 0x00 (0000ms, 0735ms total)
T18B4 001:320 JLINK_WriteReg(PSP, 0x20000800)  returns 0x00 (0000ms, 0735ms total)
T18B4 001:320 JLINK_WriteReg(CFBP, 0x00000000)  returns 0x00 (0001ms, 0736ms total)
T18B4 001:321 JLINK_SetBPEx(Addr = 0x20000000, Type = 0xFFFFFFF2)  returns 0x0000000C (0000ms, 0736ms total)
T18B4 001:321 JLINK_Go() (0002ms, 0738ms total)
T18B4 001:324 JLINK_IsHalted() -- CPU_ReadMem(2 bytes @ 0x20000000)  returns TRUE (0004ms, 0743ms total)
T18B4 001:328 JLINK_ReadReg(R15)  returns 0x20000000 (0000ms, 0739ms total)
T18B4 001:328 JLINK_ClrBPEx(BPHandle = 0x0000000C)  returns 0x00 (0000ms, 0739ms total)
T18B4 001:328 JLINK_ReadReg(R0)  returns 0x00000001 (0000ms, 0739ms total)
T18B4 001:328 JLINK_WriteReg(R0, 0x08000500)  returns 0x00 (0000ms, 0739ms total)
T18B4 001:328 JLINK_WriteReg(R1, 0x00000100)  returns 0x00 (0000ms, 0739ms total)
T18B4 001:328 JLINK_WriteReg(R2, 0x00000000)  returns 0x00 (0000ms, 0739ms total)
T18B4 001:328 JLINK_WriteReg(R3, 0x00000000)  returns 0x00 (0000ms, 0739ms total)
T18B4 001:328 JLINK_WriteReg(R4, 0x00000000)  returns 0x00 (0001ms, 0740ms total)
T18B4 001:329 JLINK_WriteReg(R5, 0x00000000)  returns 0x00 (0000ms, 0740ms total)
T18B4 001:329 JLINK_WriteReg(R6, 0x00000000)  returns 0x00 (0000ms, 0740ms total)
T18B4 001:329 JLINK_WriteReg(R7, 0x00000000)  returns 0x00 (0000ms, 0740ms total)
T18B4 001:329 JLINK_WriteReg(R8, 0x00000000)  returns 0x00 (0001ms, 0741ms total)
T18B4 001:330 JLINK_WriteReg(R9, 0x20000228)  returns 0x00 (0000ms, 0741ms total)
T18B4 001:330 JLINK_WriteReg(R10, 0x00000000)  returns 0x00 (0000ms, 0741ms total)
T18B4 001:330 JLINK_WriteReg(R11, 0x00000000)  returns 0x00 (0000ms, 0741ms total)
T18B4 001:330 JLINK_WriteReg(R12, 0x00000000)  returns 0x00 (0000ms, 0741ms total)
T18B4 001:330 JLINK_WriteReg(R13, 0x20000800)  returns 0x00 (0000ms, 0741ms total)
T18B4 001:330 JLINK_WriteReg(R14, 0x20000001)  returns 0x00 (0001ms, 0742ms total)
T18B4 001:331 JLINK_WriteReg(R15, 0x200000A4)  returns 0x00 (0000ms, 0742ms total)
T18B4 001:331 JLINK_WriteReg(XPSR, 0x01000000)  returns 0x00 (0000ms, 0742ms total)
T18B4 001:331 JLINK_WriteReg(MSP, 0x20000800)  returns 0x00 (0000ms, 0742ms total)
T18B4 001:331 JLINK_WriteReg(PSP, 0x20000800)  returns 0x00 (0000ms, 0742ms total)
T18B4 001:331 JLINK_WriteReg(CFBP, 0x00000000)  returns 0x00 (0000ms, 0742ms total)
T18B4 001:331 JLINK_SetBPEx(Addr = 0x20000000, Type = 0xFFFFFFF2)  returns 0x0000000D (0000ms, 0742ms total)
T18B4 001:331 JLINK_Go() (0003ms, 0745ms total)
T18B4 001:334 JLINK_IsHalted()  returns FALSE (0001ms, 0746ms total)
T18B4 001:385 JLINK_IsHalted() -- CPU_ReadMem(2 bytes @ 0x20000000)  returns TRUE (0005ms, 0750ms total)
T18B4 001:390 JLINK_ReadReg(R15)  returns 0x20000000 (0000ms, 0745ms total)
T18B4 001:390 JLINK_ClrBPEx(BPHandle = 0x0000000D)  returns 0x00 (0000ms, 0745ms total)
T18B4 001:390 JLINK_ReadReg(R0)  returns 0x00000000 (0000ms, 0745ms total)
T18B4 001:391 JLINK_WriteReg(R0, 0x08000600)  returns 0x00 (0000ms, 0745ms total)
T18B4 001:391 JLINK_WriteReg(R1, 0x00000100)  returns 0x00 (0000ms, 0745ms total)
T18B4 001:391 JLINK_WriteReg(R2, 0x00000000)  returns 0x00 (0000ms, 0745ms total)
T18B4 001:391 JLINK_WriteReg(R3, 0x00000000)  returns 0x00 (0000ms, 0745ms total)
T18B4 001:392 JLINK_WriteReg(R4, 0x00000000)  returns 0x00 (0000ms, 0746ms total)
T18B4 001:392 JLINK_WriteReg(R5, 0x00000000)  returns 0x00 (0000ms, 0746ms total)
T18B4 001:392 JLINK_WriteReg(R6, 0x00000000)  returns 0x00 (0000ms, 0746ms total)
T18B4 001:392 JLINK_WriteReg(R7, 0x00000000)  returns 0x00 (0000ms, 0746ms total)
T18B4 001:392 JLINK_WriteReg(R8, 0x00000000)  returns 0x00 (0000ms, 0746ms total)
T18B4 001:392 JLINK_WriteReg(R9, 0x20000228)  returns 0x00 (0001ms, 0747ms total)
T18B4 001:393 JLINK_WriteReg(R10, 0x00000000)  returns 0x00 (0000ms, 0747ms total)
T18B4 001:393 JLINK_WriteReg(R11, 0x00000000)  returns 0x00 (0000ms, 0747ms total)
T18B4 001:393 JLINK_WriteReg(R12, 0x00000000)  returns 0x00 (0000ms, 0747ms total)
T18B4 001:393 JLINK_WriteReg(R13, 0x20000800)  returns 0x00 (0000ms, 0747ms total)
T18B4 001:394 JLINK_WriteReg(R14, 0x20000001)  returns 0x00 (0000ms, 0748ms total)
T18B4 001:394 JLINK_WriteReg(R15, 0x200000F2)  returns 0x00 (0000ms, 0748ms total)
T18B4 001:394 JLINK_WriteReg(XPSR, 0x01000000)  returns 0x00 (0000ms, 0748ms total)
T18B4 001:394 JLINK_WriteReg(MSP, 0x20000800)  returns 0x00 (0000ms, 0748ms total)
T18B4 001:394 JLINK_WriteReg(PSP, 0x20000800)  returns 0x00 (0000ms, 0748ms total)
T18B4 001:394 JLINK_WriteReg(CFBP, 0x00000000)  returns 0x00 (0000ms, 0748ms total)
T18B4 001:394 JLINK_SetBPEx(Addr = 0x20000000, Type = 0xFFFFFFF2)  returns 0x0000000E (0000ms, 0748ms total)
T18B4 001:394 JLINK_Go() (0003ms, 0751ms total)
T18B4 001:397 JLINK_IsHalted() -- CPU_ReadMem(2 bytes @ 0x20000000)  returns TRUE (0005ms, 0756ms total)
T18B4 001:402 JLINK_ReadReg(R15)  returns 0x20000000 (0000ms, 0751ms total)
T18B4 001:402 JLINK_ClrBPEx(BPHandle = 0x0000000E)  returns 0x00 (0000ms, 0751ms total)
T18B4 001:402 JLINK_ReadReg(R0)  returns 0x00000001 (0000ms, 0751ms total)
T18B4 001:402 JLINK_WriteReg(R0, 0x08000600)  returns 0x00 (0000ms, 0751ms total)
T18B4 001:402 JLINK_WriteReg(R1, 0x00000100)  returns 0x00 (0000ms, 0751ms total)
T18B4 001:402 JLINK_WriteReg(R2, 0x00000000)  returns 0x00 (0000ms, 0751ms total)
T18B4 001:402 JLINK_WriteReg(R3, 0x00000000)  returns 0x00 (0000ms, 0751ms total)
T18B4 001:402 JLINK_WriteReg(R4, 0x00000000)  returns 0x00 (0000ms, 0751ms total)
T18B4 001:402 JLINK_WriteReg(R5, 0x00000000)  returns 0x00 (0001ms, 0752ms total)
T18B4 001:403 JLINK_WriteReg(R6, 0x00000000)  returns 0x00 (0000ms, 0752ms total)
T18B4 001:403 JLINK_WriteReg(R7, 0x00000000)  returns 0x00 (0000ms, 0752ms total)
T18B4 001:403 JLINK_WriteReg(R8, 0x00000000)  returns 0x00 (0000ms, 0752ms total)
T18B4 001:403 JLINK_WriteReg(R9, 0x20000228)  returns 0x00 (0000ms, 0752ms total)
T18B4 001:403 JLINK_WriteReg(R10, 0x00000000)  returns 0x00 (0000ms, 0752ms total)
T18B4 001:403 JLINK_WriteReg(R11, 0x00000000)  returns 0x00 (0000ms, 0752ms total)
T18B4 001:403 JLINK_WriteReg(R12, 0x00000000)  returns 0x00 (0000ms, 0752ms total)
T18B4 001:403 JLINK_WriteReg(R13, 0x20000800)  returns 0x00 (0000ms, 0752ms total)
T18B4 001:403 JLINK_WriteReg(R14, 0x20000001)  returns 0x00 (0000ms, 0752ms total)
T18B4 001:403 JLINK_WriteReg(R15, 0x200000A4)  returns 0x00 (0000ms, 0752ms total)
T18B4 001:404 JLINK_WriteReg(XPSR, 0x01000000)  returns 0x00 (0000ms, 0753ms total)
T18B4 001:404 JLINK_WriteReg(MSP, 0x20000800)  returns 0x00 (0000ms, 0753ms total)
T18B4 001:404 JLINK_WriteReg(PSP, 0x20000800)  returns 0x00 (0000ms, 0753ms total)
T18B4 001:404 JLINK_WriteReg(CFBP, 0x00000000)  returns 0x00 (0000ms, 0753ms total)
T18B4 001:404 JLINK_SetBPEx(Addr = 0x20000000, Type = 0xFFFFFFF2)  returns 0x0000000F (0000ms, 0753ms total)
T18B4 001:404 JLINK_Go() (0003ms, 0756ms total)
T18B4 001:407 JLINK_IsHalted()  returns FALSE (0001ms, 0757ms total)
T18B4 001:458 JLINK_IsHalted() -- CPU_ReadMem(2 bytes @ 0x20000000)  returns TRUE (0005ms, 0761ms total)
T18B4 001:463 JLINK_ReadReg(R15)  returns 0x20000000 (0000ms, 0756ms total)
T18B4 001:463 JLINK_ClrBPEx(BPHandle = 0x0000000F)  returns 0x00 (0000ms, 0756ms total)
T18B4 001:463 JLINK_ReadReg(R0)  returns 0x00000000 (0000ms, 0756ms total)
T18B4 001:463 JLINK_WriteReg(R0, 0x08000700)  returns 0x00 (0000ms, 0756ms total)
T18B4 001:463 JLINK_WriteReg(R1, 0x00000100)  returns 0x00 (0000ms, 0756ms total)
T18B4 001:463 JLINK_WriteReg(R2, 0x00000000)  returns 0x00 (0000ms, 0756ms total)
T18B4 001:463 JLINK_WriteReg(R3, 0x00000000)  returns 0x00 (0000ms, 0756ms total)
T18B4 001:463 JLINK_WriteReg(R4, 0x00000000)  returns 0x00 (0000ms, 0756ms total)
T18B4 001:463 JLINK_WriteReg(R5, 0x00000000)  returns 0x00 (0000ms, 0756ms total)
T18B4 001:464 JLINK_WriteReg(R6, 0x00000000)  returns 0x00 (0000ms, 0757ms total)
T18B4 001:464 JLINK_WriteReg(R7, 0x00000000)  returns 0x00 (0000ms, 0757ms total)
T18B4 001:464 JLINK_WriteReg(R8, 0x00000000)  returns 0x00 (0000ms, 0757ms total)
T18B4 001:464 JLINK_WriteReg(R9, 0x20000228)  returns 0x00 (0000ms, 0757ms total)
T18B4 001:464 JLINK_WriteReg(R10, 0x00000000)  returns 0x00 (0000ms, 0757ms total)
T18B4 001:464 JLINK_WriteReg(R11, 0x00000000)  returns 0x00 (0000ms, 0757ms total)
T18B4 001:464 JLINK_WriteReg(R12, 0x00000000)  returns 0x00 (0000ms, 0757ms total)
T18B4 001:464 JLINK_WriteReg(R13, 0x20000800)  returns 0x00 (0001ms, 0758ms total)
T18B4 001:465 JLINK_WriteReg(R14, 0x20000001)  returns 0x00 (0000ms, 0758ms total)
T18B4 001:465 JLINK_WriteReg(R15, 0x200000F2)  returns 0x00 (0000ms, 0758ms total)
T18B4 001:465 JLINK_WriteReg(XPSR, 0x01000000)  returns 0x00 (0000ms, 0758ms total)
T18B4 001:465 JLINK_WriteReg(MSP, 0x20000800)  returns 0x00 (0000ms, 0758ms total)
T18B4 001:465 JLINK_WriteReg(PSP, 0x20000800)  returns 0x00 (0000ms, 0758ms total)
T18B4 001:465 JLINK_WriteReg(CFBP, 0x00000000)  returns 0x00 (0000ms, 0758ms total)
T18B4 001:465 JLINK_SetBPEx(Addr = 0x20000000, Type = 0xFFFFFFF2)  returns 0x00000010 (0000ms, 0758ms total)
T18B4 001:465 JLINK_Go() (0004ms, 0762ms total)
T18B4 001:469 JLINK_IsHalted() -- CPU_ReadMem(2 bytes @ 0x20000000)  returns TRUE (0007ms, 0769ms total)
T18B4 001:476 JLINK_ReadReg(R15)  returns 0x20000000 (0000ms, 0762ms total)
T18B4 001:476 JLINK_ClrBPEx(BPHandle = 0x00000010)  returns 0x00 (0001ms, 0763ms total)
T18B4 001:477 JLINK_ReadReg(R0)  returns 0x00000001 (0000ms, 0763ms total)
T18B4 001:477 JLINK_WriteReg(R0, 0x08000700)  returns 0x00 (0000ms, 0763ms total)
T18B4 001:477 JLINK_WriteReg(R1, 0x00000100)  returns 0x00 (0000ms, 0763ms total)
T18B4 001:477 JLINK_WriteReg(R2, 0x00000000)  returns 0x00 (0000ms, 0763ms total)
T18B4 001:477 JLINK_WriteReg(R3, 0x00000000)  returns 0x00 (0000ms, 0763ms total)
T18B4 001:477 JLINK_WriteReg(R4, 0x00000000)  returns 0x00 (0000ms, 0763ms total)
T18B4 001:477 JLINK_WriteReg(R5, 0x00000000)  returns 0x00 (0000ms, 0763ms total)
T18B4 001:477 JLINK_WriteReg(R6, 0x00000000)  returns 0x00 (0001ms, 0764ms total)
T18B4 001:478 JLINK_WriteReg(R7, 0x00000000)  returns 0x00 (0000ms, 0764ms total)
T18B4 001:478 JLINK_WriteReg(R8, 0x00000000)  returns 0x00 (0000ms, 0764ms total)
T18B4 001:478 JLINK_WriteReg(R9, 0x20000228)  returns 0x00 (0000ms, 0764ms total)
T18B4 001:478 JLINK_WriteReg(R10, 0x00000000)  returns 0x00 (0000ms, 0764ms total)
T18B4 001:478 JLINK_WriteReg(R11, 0x00000000)  returns 0x00 (0000ms, 0764ms total)
T18B4 001:478 JLINK_WriteReg(R12, 0x00000000)  returns 0x00 (0000ms, 0764ms total)
T18B4 001:478 JLINK_WriteReg(R13, 0x20000800)  returns 0x00 (0000ms, 0764ms total)
T18B4 001:478 JLINK_WriteReg(R14, 0x20000001)  returns 0x00 (0000ms, 0764ms total)
T18B4 001:478 JLINK_WriteReg(R15, 0x200000A4)  returns 0x00 (0001ms, 0765ms total)
T18B4 001:479 JLINK_WriteReg(XPSR, 0x01000000)  returns 0x00 (0000ms, 0765ms total)
T18B4 001:479 JLINK_WriteReg(MSP, 0x20000800)  returns 0x00 (0000ms, 0765ms total)
T18B4 001:479 JLINK_WriteReg(PSP, 0x20000800)  returns 0x00 (0000ms, 0765ms total)
T18B4 001:479 JLINK_WriteReg(CFBP, 0x00000000)  returns 0x00 (0000ms, 0765ms total)
T18B4 001:479 JLINK_SetBPEx(Addr = 0x20000000, Type = 0xFFFFFFF2)  returns 0x00000011 (0000ms, 0765ms total)
T18B4 001:479 JLINK_Go() (0003ms, 0768ms total)
T18B4 001:482 JLINK_IsHalted()  returns FALSE (0001ms, 0769ms total)
T18B4 001:533 JLINK_IsHalted() -- CPU_ReadMem(2 bytes @ 0x20000000)  returns TRUE (0007ms, 0775ms total)
T18B4 001:540 JLINK_ReadReg(R15)  returns 0x20000000 (0000ms, 0768ms total)
T18B4 001:540 JLINK_ClrBPEx(BPHandle = 0x00000011)  returns 0x00 (0000ms, 0768ms total)
T18B4 001:540 JLINK_ReadReg(R0)  returns 0x00000000 (0000ms, 0768ms total)
T18B4 001:540 JLINK_WriteReg(R0, 0x08000800)  returns 0x00 (0000ms, 0768ms total)
T18B4 001:540 JLINK_WriteReg(R1, 0x00000100)  returns 0x00 (0001ms, 0769ms total)
T18B4 001:541 JLINK_WriteReg(R2, 0x00000000)  returns 0x00 (0000ms, 0769ms total)
T18B4 001:541 JLINK_WriteReg(R3, 0x00000000)  returns 0x00 (0000ms, 0769ms total)
T18B4 001:541 JLINK_WriteReg(R4, 0x00000000)  returns 0x00 (0000ms, 0769ms total)
T18B4 001:541 JLINK_WriteReg(R5, 0x00000000)  returns 0x00 (0000ms, 0769ms total)
T18B4 001:541 JLINK_WriteReg(R6, 0x00000000)  returns 0x00 (0000ms, 0769ms total)
T18B4 001:541 JLINK_WriteReg(R7, 0x00000000)  returns 0x00 (0000ms, 0769ms total)
T18B4 001:541 JLINK_WriteReg(R8, 0x00000000)  returns 0x00 (0000ms, 0769ms total)
T18B4 001:541 JLINK_WriteReg(R9, 0x20000228)  returns 0x00 (0000ms, 0769ms total)
T18B4 001:541 JLINK_WriteReg(R10, 0x00000000)  returns 0x00 (0000ms, 0769ms total)
T18B4 001:541 JLINK_WriteReg(R11, 0x00000000)  returns 0x00 (0000ms, 0769ms total)
T18B4 001:541 JLINK_WriteReg(R12, 0x00000000)  returns 0x00 (0001ms, 0770ms total)
T18B4 001:542 JLINK_WriteReg(R13, 0x20000800)  returns 0x00 (0000ms, 0770ms total)
T18B4 001:542 JLINK_WriteReg(R14, 0x20000001)  returns 0x00 (0000ms, 0770ms total)
T18B4 001:542 JLINK_WriteReg(R15, 0x200000F2)  returns 0x00 (0000ms, 0770ms total)
T18B4 001:542 JLINK_WriteReg(XPSR, 0x01000000)  returns 0x00 (0000ms, 0770ms total)
T18B4 001:542 JLINK_WriteReg(MSP, 0x20000800)  returns 0x00 (0000ms, 0770ms total)
T18B4 001:542 JLINK_WriteReg(PSP, 0x20000800)  returns 0x00 (0000ms, 0770ms total)
T18B4 001:542 JLINK_WriteReg(CFBP, 0x00000000)  returns 0x00 (0000ms, 0770ms total)
T18B4 001:542 JLINK_SetBPEx(Addr = 0x20000000, Type = 0xFFFFFFF2)  returns 0x00000012 (0000ms, 0770ms total)
T18B4 001:542 JLINK_Go() (0003ms, 0773ms total)
T18B4 001:545 JLINK_IsHalted() -- CPU_ReadMem(2 bytes @ 0x20000000)  returns TRUE (0007ms, 0780ms total)
T18B4 001:552 JLINK_ReadReg(R15)  returns 0x20000000 (0000ms, 0773ms total)
T18B4 001:552 JLINK_ClrBPEx(BPHandle = 0x00000012)  returns 0x00 (0000ms, 0773ms total)
T18B4 001:552 JLINK_ReadReg(R0)  returns 0x00000001 (0000ms, 0773ms total)
T18B4 001:552 JLINK_WriteReg(R0, 0x08000800)  returns 0x00 (0000ms, 0773ms total)
T18B4 001:552 JLINK_WriteReg(R1, 0x00000100)  returns 0x00 (0000ms, 0773ms total)
T18B4 001:552 JLINK_WriteReg(R2, 0x00000000)  returns 0x00 (0000ms, 0773ms total)
T18B4 001:552 JLINK_WriteReg(R3, 0x00000000)  returns 0x00 (0000ms, 0773ms total)
T18B4 001:552 JLINK_WriteReg(R4, 0x00000000)  returns 0x00 (0000ms, 0773ms total)
T18B4 001:552 JLINK_WriteReg(R5, 0x00000000)  returns 0x00 (0000ms, 0773ms total)
T18B4 001:552 JLINK_WriteReg(R6, 0x00000000)  returns 0x00 (0001ms, 0774ms total)
T18B4 001:553 JLINK_WriteReg(R7, 0x00000000)  returns 0x00 (0000ms, 0774ms total)
T18B4 001:553 JLINK_WriteReg(R8, 0x00000000)  returns 0x00 (0000ms, 0774ms total)
T18B4 001:553 JLINK_WriteReg(R9, 0x20000228)  returns 0x00 (0000ms, 0774ms total)
T18B4 001:553 JLINK_WriteReg(R10, 0x00000000)  returns 0x00 (0000ms, 0774ms total)
T18B4 001:553 JLINK_WriteReg(R11, 0x00000000)  returns 0x00 (0000ms, 0774ms total)
T18B4 001:553 JLINK_WriteReg(R12, 0x00000000)  returns 0x00 (0000ms, 0774ms total)
T18B4 001:553 JLINK_WriteReg(R13, 0x20000800)  returns 0x00 (0000ms, 0774ms total)
T18B4 001:553 JLINK_WriteReg(R14, 0x20000001)  returns 0x00 (0000ms, 0774ms total)
T18B4 001:553 JLINK_WriteReg(R15, 0x200000A4)  returns 0x00 (0000ms, 0774ms total)
T18B4 001:553 JLINK_WriteReg(XPSR, 0x01000000)  returns 0x00 (0000ms, 0774ms total)
T18B4 001:553 JLINK_WriteReg(MSP, 0x20000800)  returns 0x00 (0001ms, 0775ms total)
T18B4 001:554 JLINK_WriteReg(PSP, 0x20000800)  returns 0x00 (0000ms, 0775ms total)
T18B4 001:554 JLINK_WriteReg(CFBP, 0x00000000)  returns 0x00 (0000ms, 0775ms total)
T18B4 001:554 JLINK_SetBPEx(Addr = 0x20000000, Type = 0xFFFFFFF2)  returns 0x00000013 (0000ms, 0775ms total)
T18B4 001:554 JLINK_Go() (0003ms, 0778ms total)
T18B4 001:559 JLINK_IsHalted() -- CPU_ReadMem(2 bytes @ 0x20000000)  returns TRUE (0005ms, 0785ms total)
T18B4 001:564 JLINK_ReadReg(R15)  returns 0x20000000 (0001ms, 0781ms total)
T18B4 001:565 JLINK_ClrBPEx(BPHandle = 0x00000013)  returns 0x00 (0000ms, 0781ms total)
T18B4 001:565 JLINK_ReadReg(R0)  returns 0x00000000 (0000ms, 0781ms total)
T18B4 001:565 JLINK_WriteReg(R0, 0x08000900)  returns 0x00 (0000ms, 0781ms total)
T18B4 001:565 JLINK_WriteReg(R1, 0x00000100)  returns 0x00 (0000ms, 0781ms total)
T18B4 001:565 JLINK_WriteReg(R2, 0x00000000)  returns 0x00 (0000ms, 0781ms total)
T18B4 001:565 JLINK_WriteReg(R3, 0x00000000)  returns 0x00 (0000ms, 0781ms total)
T18B4 001:565 JLINK_WriteReg(R4, 0x00000000)  returns 0x00 (0000ms, 0781ms total)
T18B4 001:565 JLINK_WriteReg(R5, 0x00000000)  returns 0x00 (0000ms, 0781ms total)
T18B4 001:565 JLINK_WriteReg(R6, 0x00000000)  returns 0x00 (0000ms, 0781ms total)
T18B4 001:565 JLINK_WriteReg(R7, 0x00000000)  returns 0x00 (0000ms, 0781ms total)
T18B4 001:565 JLINK_WriteReg(R8, 0x00000000)  returns 0x00 (0001ms, 0782ms total)
T18B4 001:566 JLINK_WriteReg(R9, 0x20000228)  returns 0x00 (0000ms, 0782ms total)
T18B4 001:566 JLINK_WriteReg(R10, 0x00000000)  returns 0x00 (0000ms, 0782ms total)
T18B4 001:566 JLINK_WriteReg(R11, 0x00000000)  returns 0x00 (0000ms, 0782ms total)
T18B4 001:566 JLINK_WriteReg(R12, 0x00000000)  returns 0x00 (0000ms, 0782ms total)
T18B4 001:566 JLINK_WriteReg(R13, 0x20000800)  returns 0x00 (0000ms, 0782ms total)
T18B4 001:566 JLINK_WriteReg(R14, 0x20000001)  returns 0x00 (0000ms, 0782ms total)
T18B4 001:566 JLINK_WriteReg(R15, 0x200000F2)  returns 0x00 (0000ms, 0782ms total)
T18B4 001:566 JLINK_WriteReg(XPSR, 0x01000000)  returns 0x00 (0000ms, 0782ms total)
T18B4 001:566 JLINK_WriteReg(MSP, 0x20000800)  returns 0x00 (0000ms, 0782ms total)
T18B4 001:566 JLINK_WriteReg(PSP, 0x20000800)  returns 0x00 (0000ms, 0782ms total)
